Circuit: * Z:\work\sim\current_mirror_pmos.asc

Direct Newton iteration for .op point succeeded.
Semiconductor Device Operating Points:
                        --- Diodes ---
Name:      d7          d6          d5          d4          d3
Model:  aot-2015    aot-2015    aot-2015    aot-2015    aot-2015
Id:      2.18e-02    2.18e-02    2.18e-02    2.18e-02    2.18e-02
Vd:      2.83e+00    2.83e+00    2.83e+00    2.83e+00    2.83e+00
Req:     7.37e+00    7.37e+00    7.37e+00    7.37e+00    7.37e+00
CAP:     2.34e-09    2.34e-09    2.34e-09    2.34e-09    2.34e-09

Name:      d2          d1
Model:  aot-2015    aot-2015
Id:      2.18e-02    2.18e-02
Vd:      2.83e+00    2.83e+00
Req:     7.37e+00    7.37e+00
CAP:     2.34e-09    2.34e-09

                        --- Bipolar Transistors ---
Name:       q1
Model:      npn
Ib:       4.15e-04
Ic:       2.18e-02
Vbe:      8.54e-01
Vbc:      7.32e-01
Vce:      1.23e-01
BetaDC:   5.27e+01
Gm:       8.52e-01
Rpi:      1.16e+02
Rx:       0.00e+00
Ro:       1.35e+02
Cbe:      0.00e+00
Cbc:      0.00e+00
Cjs:      0.00e+00
BetaAC:   9.91e+01
Cbx:      0.00e+00
Ft:       0.00e+00

                        --- VDMOSFET Transistors ---
Name:          m4          m3          m2          m1
Model:        bss84       bss84       bss84       bss84
Id:         -2.18e-02   -2.18e-02   -2.18e-02   -2.18e-02
Vgs:        -2.61e+00   -2.61e+00   -2.61e+00   -2.61e+00
Vds:        -9.17e+00   -6.35e+00   -5.72e-01   -2.61e+00
Vth:        -2.10e+00   -2.10e+00   -2.10e+00   -2.10e+00
Gm:          9.35e-02    9.35e-02    9.35e-02    9.35e-02
Gds:         0.00e+00    0.00e+00    0.00e+00    0.00e+00
Cgs:         2.00e-11    2.00e-11    2.00e-11    2.00e-11
Cgd:         3.31e-12    5.02e-12    3.95e-11    2.56e-11
Cbody:       3.14e-12    3.69e-12    7.98e-12    5.27e-12



Date: Fri Dec 14 23:37:22 2012
Total elapsed time: 0.218 seconds.

tnom = 27
temp = 27
method = trap
totiter = 38
traniter = 0
tranpoints = 0
accept = 0
rejected = 0
matrix size = 37
fillins = 1
solver = Normal
Matrix Compiler1: 2.18 KB object code size
Matrix Compiler2:     243 opcodes

